 frequency      v(vout_p)      v(vout_p)      frequency      v(vout_n)      v(vout_n)     
 1.0000000e+03  1.0405654e+04 -2.1045533e-02  1.0000000e+03 -1.0405654e+04  2.1045533e-02 
 1.0232930e+03  1.0405654e+04 -2.1535746e-02  1.0232930e+03 -1.0405654e+04  2.1535746e-02 
 1.0471285e+03  1.0405654e+04 -2.2037378e-02  1.0471285e+03 -1.0405654e+04  2.2037378e-02 
 1.0715193e+03  1.0405654e+04 -2.2550695e-02  1.0715193e+03 -1.0405654e+04  2.2550695e-02 
 1.0964782e+03  1.0405654e+04 -2.3075968e-02  1.0964782e+03 -1.0405654e+04  2.3075968e-02 
 1.1220185e+03  1.0405654e+04 -2.3613476e-02  1.1220185e+03 -1.0405654e+04  2.3613476e-02 
 1.1481536e+03  1.0405654e+04 -2.4163505e-02  1.1481536e+03 -1.0405654e+04  2.4163505e-02 
 1.1748976e+03  1.0405654e+04 -2.4726345e-02  1.1748976e+03 -1.0405654e+04  2.4726345e-02 
 1.2022644e+03  1.0405654e+04 -2.5302295e-02  1.2022644e+03 -1.0405654e+04  2.5302295e-02 
 1.2302688e+03  1.0405654e+04 -2.5891662e-02  1.2302688e+03 -1.0405654e+04  2.5891662e-02 
 1.2589254e+03  1.0405654e+04 -2.6494756e-02  1.2589254e+03 -1.0405654e+04  2.6494756e-02 
 1.2882496e+03  1.0405654e+04 -2.7111898e-02  1.2882496e+03 -1.0405654e+04  2.7111898e-02 
 1.3182567e+03  1.0405654e+04 -2.7743415e-02  1.3182567e+03 -1.0405654e+04  2.7743415e-02 
 1.3489629e+03  1.0405654e+04 -2.8389642e-02  1.3489629e+03 -1.0405654e+04  2.8389642e-02 
 1.3803843e+03  1.0405654e+04 -2.9050922e-02  1.3803843e+03 -1.0405654e+04  2.9050922e-02 
 1.4125375e+03  1.0405654e+04 -2.9727605e-02  1.4125375e+03 -1.0405654e+04  2.9727605e-02 
 1.4454398e+03  1.0405654e+04 -3.0420050e-02  1.4454398e+03 -1.0405654e+04  3.0420050e-02 
 1.4791084e+03  1.0405654e+04 -3.1128624e-02  1.4791084e+03 -1.0405654e+04  3.1128624e-02 
 1.5135612e+03  1.0405654e+04 -3.1853703e-02  1.5135612e+03 -1.0405654e+04  3.1853703e-02 
 1.5488166e+03  1.0405654e+04 -3.2595671e-02  1.5488166e+03 -1.0405654e+04  3.2595671e-02 
 1.5848932e+03  1.0405654e+04 -3.3354921e-02  1.5848932e+03 -1.0405654e+04  3.3354921e-02 
 1.6218101e+03  1.0405654e+04 -3.4131857e-02  1.6218101e+03 -1.0405654e+04  3.4131857e-02 
 1.6595869e+03  1.0405654e+04 -3.4926890e-02  1.6595869e+03 -1.0405654e+04  3.4926890e-02 
 1.6982437e+03  1.0405654e+04 -3.5740442e-02  1.6982437e+03 -1.0405654e+04  3.5740442e-02 
 1.7378008e+03  1.0405654e+04 -3.6572944e-02  1.7378008e+03 -1.0405654e+04  3.6572944e-02 
 1.7782794e+03  1.0405654e+04 -3.7424837e-02  1.7782794e+03 -1.0405654e+04  3.7424837e-02 
 1.8197009e+03  1.0405654e+04 -3.8296574e-02  1.8197009e+03 -1.0405654e+04  3.8296574e-02 
 1.8620871e+03  1.0405654e+04 -3.9188616e-02  1.8620871e+03 -1.0405654e+04  3.9188616e-02 
 1.9054607e+03  1.0405654e+04 -4.0101436e-02  1.9054607e+03 -1.0405654e+04  4.0101436e-02 
 1.9498446e+03  1.0405654e+04 -4.1035518e-02  1.9498446e+03 -1.0405654e+04  4.1035518e-02 
 1.9952623e+03  1.0405654e+04 -4.1991358e-02  1.9952623e+03 -1.0405654e+04  4.1991358e-02 
 2.0417379e+03  1.0405654e+04 -4.2969463e-02  2.0417379e+03 -1.0405654e+04  4.2969463e-02 
 2.0892961e+03  1.0405654e+04 -4.3970350e-02  2.0892961e+03 -1.0405654e+04  4.3970350e-02 
 2.1379621e+03  1.0405654e+04 -4.4994551e-02  2.1379621e+03 -1.0405654e+04  4.4994551e-02 
 2.1877616e+03  1.0405654e+04 -4.6042609e-02  2.1877616e+03 -1.0405654e+04  4.6042609e-02 
 2.2387211e+03  1.0405654e+04 -4.7115079e-02  2.2387211e+03 -1.0405654e+04  4.7115079e-02 
 2.2908677e+03  1.0405654e+04 -4.8212530e-02  2.2908677e+03 -1.0405654e+04  4.8212530e-02 
 2.3442288e+03  1.0405654e+04 -4.9335544e-02  2.3442288e+03 -1.0405654e+04  4.9335544e-02 
 2.3988329e+03  1.0405654e+04 -5.0484717e-02  2.3988329e+03 -1.0405654e+04  5.0484717e-02 
 2.4547089e+03  1.0405654e+04 -5.1660657e-02  2.4547089e+03 -1.0405654e+04  5.1660657e-02 
 2.5118864e+03  1.0405654e+04 -5.2863988e-02  2.5118864e+03 -1.0405654e+04  5.2863988e-02 
 2.5703958e+03  1.0405654e+04 -5.4095348e-02  2.5703958e+03 -1.0405654e+04  5.4095348e-02 
 2.6302680e+03  1.0405654e+04 -5.5355391e-02  2.6302680e+03 -1.0405654e+04  5.5355391e-02 
 2.6915348e+03  1.0405654e+04 -5.6644784e-02  2.6915348e+03 -1.0405654e+04  5.6644784e-02 
 2.7542287e+03  1.0405654e+04 -5.7964210e-02  2.7542287e+03 -1.0405654e+04  5.7964210e-02 
 2.8183829e+03  1.0405654e+04 -5.9314370e-02  2.8183829e+03 -1.0405654e+04  5.9314370e-02 
 2.8840315e+03  1.0405654e+04 -6.0695979e-02  2.8840315e+03 -1.0405654e+04  6.0695979e-02 
 2.9512092e+03  1.0405654e+04 -6.2109770e-02  2.9512092e+03 -1.0405654e+04  6.2109770e-02 
 3.0199517e+03  1.0405654e+04 -6.3556493e-02  3.0199517e+03 -1.0405654e+04  6.3556493e-02 
 3.0902954e+03  1.0405654e+04 -6.5036913e-02  3.0902954e+03 -1.0405654e+04  6.5036913e-02 
 3.1622777e+03  1.0405654e+04 -6.6551818e-02  3.1622777e+03 -1.0405654e+04  6.6551818e-02 
 3.2359366e+03  1.0405654e+04 -6.8102009e-02  3.2359366e+03 -1.0405654e+04  6.8102009e-02 
 3.3113112e+03  1.0405654e+04 -6.9688308e-02  3.3113112e+03 -1.0405654e+04  6.9688308e-02 
 3.3884416e+03  1.0405654e+04 -7.1311558e-02  3.3884416e+03 -1.0405654e+04  7.1311558e-02 
 3.4673685e+03  1.0405654e+04 -7.2972617e-02  3.4673685e+03 -1.0405654e+04  7.2972617e-02 
 3.5481339e+03  1.0405654e+04 -7.4672368e-02  3.5481339e+03 -1.0405654e+04  7.4672368e-02 
 3.6307805e+03  1.0405654e+04 -7.6411711e-02  3.6307805e+03 -1.0405654e+04  7.6411711e-02 
 3.7153523e+03  1.0405654e+04 -7.8191568e-02  3.7153523e+03 -1.0405654e+04  7.8191568e-02 
 3.8018940e+03  1.0405654e+04 -8.0012884e-02  3.8018940e+03 -1.0405654e+04  8.0012884e-02 
 3.8904514e+03  1.0405654e+04 -8.1876623e-02  3.8904514e+03 -1.0405654e+04  8.1876623e-02 
 3.9810717e+03  1.0405654e+04 -8.3783775e-02  3.9810717e+03 -1.0405654e+04  8.3783775e-02 
 4.0738028e+03  1.0405654e+04 -8.5735349e-02  4.0738028e+03 -1.0405654e+04  8.5735349e-02 
 4.1686938e+03  1.0405654e+04 -8.7732382e-02  4.1686938e+03 -1.0405654e+04  8.7732382e-02 
 4.2657952e+03  1.0405654e+04 -8.9775932e-02  4.2657952e+03 -1.0405654e+04  8.9775932e-02 
 4.3651583e+03  1.0405654e+04 -9.1867082e-02  4.3651583e+03 -1.0405654e+04  9.1867082e-02 
 4.4668359e+03  1.0405654e+04 -9.4006941e-02  4.4668359e+03 -1.0405654e+04  9.4006941e-02 
 4.5708819e+03  1.0405654e+04 -9.6196644e-02  4.5708819e+03 -1.0405654e+04  9.6196644e-02 
 4.6773514e+03  1.0405654e+04 -9.8437352e-02  4.6773514e+03 -1.0405654e+04  9.8437352e-02 
 4.7863009e+03  1.0405654e+04 -1.0073025e-01  4.7863009e+03 -1.0405654e+04  1.0073025e-01 
 4.8977882e+03  1.0405654e+04 -1.0307656e-01  4.8977882e+03 -1.0405654e+04  1.0307656e-01 
 5.0118723e+03  1.0405654e+04 -1.0547752e-01  5.0118723e+03 -1.0405654e+04  1.0547752e-01 
 5.1286138e+03  1.0405654e+04 -1.0793441e-01  5.1286138e+03 -1.0405654e+04  1.0793441e-01 
 5.2480746e+03  1.0405654e+04 -1.1044853e-01  5.2480746e+03 -1.0405654e+04  1.1044853e-01 
 5.3703180e+03  1.0405654e+04 -1.1302120e-01  5.3703180e+03 -1.0405654e+04  1.1302120e-01 
 5.4954087e+03  1.0405654e+04 -1.1565380e-01  5.4954087e+03 -1.0405654e+04  1.1565380e-01 
 5.6234133e+03  1.0405654e+04 -1.1834773e-01  5.6234133e+03 -1.0405654e+04  1.1834773e-01 
 5.7543994e+03  1.0405654e+04 -1.2110440e-01  5.7543994e+03 -1.0405654e+04  1.2110440e-01 
 5.8884366e+03  1.0405654e+04 -1.2392528e-01  5.8884366e+03 -1.0405654e+04  1.2392528e-01 
 6.0255959e+03  1.0405654e+04 -1.2681187e-01  6.0255959e+03 -1.0405654e+04  1.2681187e-01 
 6.1659500e+03  1.0405654e+04 -1.2976570e-01  6.1659500e+03 -1.0405654e+04  1.2976570e-01 
 6.3095734e+03  1.0405654e+04 -1.3278833e-01  6.3095734e+03 -1.0405654e+04  1.3278833e-01 
 6.4565423e+03  1.0405654e+04 -1.3588137e-01  6.4565423e+03 -1.0405654e+04  1.3588137e-01 
 6.6069345e+03  1.0405654e+04 -1.3904646e-01  6.6069345e+03 -1.0405654e+04  1.3904646e-01 
 6.7608298e+03  1.0405654e+04 -1.4228526e-01  6.7608298e+03 -1.0405654e+04  1.4228526e-01 
 6.9183097e+03  1.0405654e+04 -1.4559951e-01  6.9183097e+03 -1.0405654e+04  1.4559951e-01 
 7.0794578e+03  1.0405654e+04 -1.4899096e-01  7.0794578e+03 -1.0405654e+04  1.4899096e-01 
 7.2443596e+03  1.0405654e+04 -1.5246141e-01  7.2443596e+03 -1.0405654e+04  1.5246141e-01 
 7.4131024e+03  1.0405654e+04 -1.5601269e-01  7.4131024e+03 -1.0405654e+04  1.5601269e-01 
 7.5857758e+03  1.0405654e+04 -1.5964669e-01  7.5857758e+03 -1.0405654e+04  1.5964669e-01 
 7.7624712e+03  1.0405654e+04 -1.6336534e-01  7.7624712e+03 -1.0405654e+04  1.6336534e-01 
 7.9432823e+03  1.0405654e+04 -1.6717061e-01  7.9432823e+03 -1.0405654e+04  1.6717061e-01 
 8.1283052e+03  1.0405654e+04 -1.7106451e-01  8.1283052e+03 -1.0405654e+04  1.7106451e-01 
 8.3176377e+03  1.0405654e+04 -1.7504912e-01  8.3176377e+03 -1.0405654e+04  1.7504912e-01 
 8.5113804e+03  1.0405654e+04 -1.7912653e-01  8.5113804e+03 -1.0405654e+04  1.7912653e-01 
 8.7096359e+03  1.0405654e+04 -1.8329893e-01  8.7096359e+03 -1.0405654e+04  1.8329893e-01 
 8.9125094e+03  1.0405654e+04 -1.8756851e-01  8.9125094e+03 -1.0405654e+04  1.8756851e-01 
 9.1201084e+03  1.0405654e+04 -1.9193754e-01  9.1201084e+03 -1.0405654e+04  1.9193754e-01 
 9.3325430e+03  1.0405654e+04 -1.9640834e-01  9.3325430e+03 -1.0405654e+04  1.9640834e-01 
 9.5499259e+03  1.0405654e+04 -2.0098328e-01  9.5499259e+03 -1.0405654e+04  2.0098328e-01 
 9.7723722e+03  1.0405654e+04 -2.0566478e-01  9.7723722e+03 -1.0405654e+04  2.0566478e-01 
 1.0000000e+04  1.0405654e+04 -2.1045533e-01  1.0000000e+04 -1.0405654e+04  2.1045533e-01 
 1.0232930e+04  1.0405654e+04 -2.1535746e-01  1.0232930e+04 -1.0405654e+04  2.1535746e-01 
 1.0471285e+04  1.0405654e+04 -2.2037378e-01  1.0471285e+04 -1.0405654e+04  2.2037378e-01 
 1.0715193e+04  1.0405654e+04 -2.2550695e-01  1.0715193e+04 -1.0405654e+04  2.2550695e-01 
 1.0964782e+04  1.0405654e+04 -2.3075968e-01  1.0964782e+04 -1.0405654e+04  2.3075968e-01 
 1.1220185e+04  1.0405654e+04 -2.3613476e-01  1.1220185e+04 -1.0405654e+04  2.3613476e-01 
 1.1481536e+04  1.0405654e+04 -2.4163505e-01  1.1481536e+04 -1.0405654e+04  2.4163505e-01 
 1.1748976e+04  1.0405654e+04 -2.4726345e-01  1.1748976e+04 -1.0405654e+04  2.4726345e-01 
 1.2022644e+04  1.0405654e+04 -2.5302295e-01  1.2022644e+04 -1.0405654e+04  2.5302295e-01 
 1.2302688e+04  1.0405654e+04 -2.5891662e-01  1.2302688e+04 -1.0405654e+04  2.5891662e-01 
 1.2589254e+04  1.0405654e+04 -2.6494756e-01  1.2589254e+04 -1.0405654e+04  2.6494756e-01 
 1.2882496e+04  1.0405654e+04 -2.7111898e-01  1.2882496e+04 -1.0405654e+04  2.7111898e-01 
 1.3182567e+04  1.0405654e+04 -2.7743415e-01  1.3182567e+04 -1.0405654e+04  2.7743415e-01 
 1.3489629e+04  1.0405654e+04 -2.8389642e-01  1.3489629e+04 -1.0405654e+04  2.8389642e-01 
 1.3803843e+04  1.0405654e+04 -2.9050922e-01  1.3803843e+04 -1.0405654e+04  2.9050922e-01 
 1.4125375e+04  1.0405654e+04 -2.9727605e-01  1.4125375e+04 -1.0405654e+04  2.9727605e-01 
 1.4454398e+04  1.0405654e+04 -3.0420050e-01  1.4454398e+04 -1.0405654e+04  3.0420050e-01 
 1.4791084e+04  1.0405654e+04 -3.1128624e-01  1.4791084e+04 -1.0405654e+04  3.1128624e-01 
 1.5135612e+04  1.0405654e+04 -3.1853703e-01  1.5135612e+04 -1.0405654e+04  3.1853703e-01 
 1.5488166e+04  1.0405654e+04 -3.2595671e-01  1.5488166e+04 -1.0405654e+04  3.2595671e-01 
 1.5848932e+04  1.0405654e+04 -3.3354921e-01  1.5848932e+04 -1.0405654e+04  3.3354921e-01 
 1.6218101e+04  1.0405654e+04 -3.4131857e-01  1.6218101e+04 -1.0405654e+04  3.4131857e-01 
 1.6595869e+04  1.0405654e+04 -3.4926890e-01  1.6595869e+04 -1.0405654e+04  3.4926890e-01 
 1.6982437e+04  1.0405654e+04 -3.5740442e-01  1.6982437e+04 -1.0405654e+04  3.5740442e-01 
 1.7378008e+04  1.0405654e+04 -3.6572944e-01  1.7378008e+04 -1.0405654e+04  3.6572944e-01 
 1.7782794e+04  1.0405654e+04 -3.7424837e-01  1.7782794e+04 -1.0405654e+04  3.7424837e-01 
 1.8197009e+04  1.0405654e+04 -3.8296574e-01  1.8197009e+04 -1.0405654e+04  3.8296574e-01 
 1.8620871e+04  1.0405654e+04 -3.9188616e-01  1.8620871e+04 -1.0405654e+04  3.9188616e-01 
 1.9054607e+04  1.0405654e+04 -4.0101436e-01  1.9054607e+04 -1.0405654e+04  4.0101436e-01 
 1.9498446e+04  1.0405654e+04 -4.1035518e-01  1.9498446e+04 -1.0405654e+04  4.1035518e-01 
 1.9952623e+04  1.0405654e+04 -4.1991358e-01  1.9952623e+04 -1.0405654e+04  4.1991358e-01 
 2.0417379e+04  1.0405654e+04 -4.2969463e-01  2.0417379e+04 -1.0405654e+04  4.2969463e-01 
 2.0892961e+04  1.0405654e+04 -4.3970350e-01  2.0892961e+04 -1.0405654e+04  4.3970350e-01 
 2.1379621e+04  1.0405654e+04 -4.4994551e-01  2.1379621e+04 -1.0405654e+04  4.4994551e-01 
 2.1877616e+04  1.0405654e+04 -4.6042609e-01  2.1877616e+04 -1.0405654e+04  4.6042609e-01 
 2.2387211e+04  1.0405654e+04 -4.7115079e-01  2.2387211e+04 -1.0405654e+04  4.7115079e-01 
 2.2908677e+04  1.0405654e+04 -4.8212530e-01  2.2908677e+04 -1.0405654e+04  4.8212530e-01 
 2.3442288e+04  1.0405654e+04 -4.9335544e-01  2.3442288e+04 -1.0405654e+04  4.9335544e-01 
 2.3988329e+04  1.0405654e+04 -5.0484716e-01  2.3988329e+04 -1.0405654e+04  5.0484716e-01 
 2.4547089e+04  1.0405654e+04 -5.1660657e-01  2.4547089e+04 -1.0405654e+04  5.1660657e-01 
 2.5118864e+04  1.0405654e+04 -5.2863988e-01  2.5118864e+04 -1.0405654e+04  5.2863988e-01 
 2.5703958e+04  1.0405654e+04 -5.4095348e-01  2.5703958e+04 -1.0405654e+04  5.4095348e-01 
 2.6302680e+04  1.0405654e+04 -5.5355391e-01  2.6302680e+04 -1.0405654e+04  5.5355391e-01 
 2.6915348e+04  1.0405654e+04 -5.6644783e-01  2.6915348e+04 -1.0405654e+04  5.6644783e-01 
 2.7542287e+04  1.0405654e+04 -5.7964210e-01  2.7542287e+04 -1.0405654e+04  5.7964210e-01 
 2.8183829e+04  1.0405654e+04 -5.9314370e-01  2.8183829e+04 -1.0405654e+04  5.9314370e-01 
 2.8840315e+04  1.0405654e+04 -6.0695979e-01  2.8840315e+04 -1.0405654e+04  6.0695979e-01 
 2.9512092e+04  1.0405654e+04 -6.2109770e-01  2.9512092e+04 -1.0405654e+04  6.2109770e-01 
 3.0199517e+04  1.0405654e+04 -6.3556492e-01  3.0199517e+04 -1.0405654e+04  6.3556492e-01 
 3.0902954e+04  1.0405654e+04 -6.5036913e-01  3.0902954e+04 -1.0405654e+04  6.5036913e-01 
 3.1622777e+04  1.0405654e+04 -6.6551818e-01  3.1622777e+04 -1.0405654e+04  6.6551818e-01 
 3.2359366e+04  1.0405654e+04 -6.8102009e-01  3.2359366e+04 -1.0405654e+04  6.8102009e-01 
 3.3113112e+04  1.0405654e+04 -6.9688308e-01  3.3113112e+04 -1.0405654e+04  6.9688308e-01 
 3.3884416e+04  1.0405654e+04 -7.1311557e-01  3.3884416e+04 -1.0405654e+04  7.1311557e-01 
 3.4673685e+04  1.0405654e+04 -7.2972617e-01  3.4673685e+04 -1.0405654e+04  7.2972617e-01 
 3.5481339e+04  1.0405654e+04 -7.4672367e-01  3.5481339e+04 -1.0405654e+04  7.4672367e-01 
 3.6307805e+04  1.0405654e+04 -7.6411710e-01  3.6307805e+04 -1.0405654e+04  7.6411710e-01 
 3.7153523e+04  1.0405654e+04 -7.8191568e-01  3.7153523e+04 -1.0405654e+04  7.8191568e-01 
 3.8018940e+04  1.0405654e+04 -8.0012883e-01  3.8018940e+04 -1.0405654e+04  8.0012883e-01 
 3.8904514e+04  1.0405654e+04 -8.1876623e-01  3.8904514e+04 -1.0405654e+04  8.1876623e-01 
 3.9810717e+04  1.0405654e+04 -8.3783774e-01  3.9810717e+04 -1.0405654e+04  8.3783774e-01 
 4.0738028e+04  1.0405654e+04 -8.5735349e-01  4.0738028e+04 -1.0405654e+04  8.5735349e-01 
 4.1686938e+04  1.0405654e+04 -8.7732382e-01  4.1686938e+04 -1.0405654e+04  8.7732382e-01 
 4.2657952e+04  1.0405654e+04 -8.9775931e-01  4.2657952e+04 -1.0405654e+04  8.9775931e-01 
 4.3651583e+04  1.0405654e+04 -9.1867081e-01  4.3651583e+04 -1.0405654e+04  9.1867081e-01 
 4.4668359e+04  1.0405654e+04 -9.4006941e-01  4.4668359e+04 -1.0405654e+04  9.4006941e-01 
 4.5708819e+04  1.0405654e+04 -9.6196644e-01  4.5708819e+04 -1.0405654e+04  9.6196644e-01 
 4.6773514e+04  1.0405654e+04 -9.8437351e-01  4.6773514e+04 -1.0405654e+04  9.8437351e-01 
 4.7863009e+04  1.0405654e+04 -1.0073025e+00  4.7863009e+04 -1.0405654e+04  1.0073025e+00 
 4.8977882e+04  1.0405654e+04 -1.0307656e+00  4.8977882e+04 -1.0405654e+04  1.0307656e+00 
 5.0118723e+04  1.0405654e+04 -1.0547752e+00  5.0118723e+04 -1.0405654e+04  1.0547752e+00 
 5.1286138e+04  1.0405654e+04 -1.0793441e+00  5.1286138e+04 -1.0405654e+04  1.0793441e+00 
 5.2480746e+04  1.0405654e+04 -1.1044852e+00  5.2480746e+04 -1.0405654e+04  1.1044852e+00 
 5.3703180e+04  1.0405654e+04 -1.1302120e+00  5.3703180e+04 -1.0405654e+04  1.1302120e+00 
 5.4954087e+04  1.0405654e+04 -1.1565380e+00  5.4954087e+04 -1.0405654e+04  1.1565380e+00 
 5.6234133e+04  1.0405654e+04 -1.1834773e+00  5.6234133e+04 -1.0405654e+04  1.1834773e+00 
 5.7543994e+04  1.0405654e+04 -1.2110440e+00  5.7543994e+04 -1.0405654e+04  1.2110440e+00 
 5.8884366e+04  1.0405654e+04 -1.2392528e+00  5.8884366e+04 -1.0405654e+04  1.2392528e+00 
 6.0255959e+04  1.0405654e+04 -1.2681187e+00  6.0255959e+04 -1.0405654e+04  1.2681187e+00 
 6.1659500e+04  1.0405654e+04 -1.2976570e+00  6.1659500e+04 -1.0405654e+04  1.2976570e+00 
 6.3095734e+04  1.0405654e+04 -1.3278833e+00  6.3095734e+04 -1.0405654e+04  1.3278833e+00 
 6.4565423e+04  1.0405654e+04 -1.3588137e+00  6.4565423e+04 -1.0405654e+04  1.3588137e+00 
 6.6069345e+04  1.0405654e+04 -1.3904645e+00  6.6069345e+04 -1.0405654e+04  1.3904645e+00 
 6.7608298e+04  1.0405654e+04 -1.4228526e+00  6.7608298e+04 -1.0405654e+04  1.4228526e+00 
 6.9183097e+04  1.0405654e+04 -1.4559951e+00  6.9183097e+04 -1.0405654e+04  1.4559951e+00 
 7.0794578e+04  1.0405654e+04 -1.4899096e+00  7.0794578e+04 -1.0405654e+04  1.4899096e+00 
 7.2443596e+04  1.0405654e+04 -1.5246140e+00  7.2443596e+04 -1.0405654e+04  1.5246140e+00 
 7.4131024e+04  1.0405654e+04 -1.5601269e+00  7.4131024e+04 -1.0405654e+04  1.5601269e+00 
 7.5857758e+04  1.0405654e+04 -1.5964669e+00  7.5857758e+04 -1.0405654e+04  1.5964669e+00 
 7.7624712e+04  1.0405654e+04 -1.6336534e+00  7.7624712e+04 -1.0405654e+04  1.6336534e+00 
 7.9432823e+04  1.0405654e+04 -1.6717060e+00  7.9432823e+04 -1.0405654e+04  1.6717060e+00 
 8.1283052e+04  1.0405654e+04 -1.7106451e+00  8.1283052e+04 -1.0405654e+04  1.7106451e+00 
 8.3176377e+04  1.0405654e+04 -1.7504911e+00  8.3176377e+04 -1.0405654e+04  1.7504911e+00 
 8.5113804e+04  1.0405654e+04 -1.7912653e+00  8.5113804e+04 -1.0405654e+04  1.7912653e+00 
 8.7096359e+04  1.0405654e+04 -1.8329892e+00  8.7096359e+04 -1.0405654e+04  1.8329892e+00 
 8.9125094e+04  1.0405653e+04 -1.8756850e+00  8.9125094e+04 -1.0405653e+04  1.8756850e+00 
 9.1201084e+04  1.0405653e+04 -1.9193753e+00  9.1201084e+04 -1.0405653e+04  1.9193753e+00 
 9.3325430e+04  1.0405653e+04 -1.9640833e+00  9.3325430e+04 -1.0405653e+04  1.9640833e+00 
 9.5499259e+04  1.0405653e+04 -2.0098327e+00  9.5499259e+04 -1.0405653e+04  2.0098327e+00 
 9.7723722e+04  1.0405653e+04 -2.0566477e+00  9.7723722e+04 -1.0405653e+04  2.0566477e+00 
 1.0000000e+05  1.0405653e+04 -2.1045532e+00  1.0000000e+05 -1.0405653e+04  2.1045532e+00 
 1.0232930e+05  1.0405653e+04 -2.1535745e+00  1.0232930e+05 -1.0405653e+04  2.1535745e+00 
 1.0471285e+05  1.0405653e+04 -2.2037377e+00  1.0471285e+05 -1.0405653e+04  2.2037377e+00 
 1.0715193e+05  1.0405653e+04 -2.2550694e+00  1.0715193e+05 -1.0405653e+04  2.2550694e+00 
 1.0964782e+05  1.0405653e+04 -2.3075967e+00  1.0964782e+05 -1.0405653e+04  2.3075967e+00 
 1.1220185e+05  1.0405653e+04 -2.3613475e+00  1.1220185e+05 -1.0405653e+04  2.3613475e+00 
 1.1481536e+05  1.0405653e+04 -2.4163503e+00  1.1481536e+05 -1.0405653e+04  2.4163503e+00 
 1.1748976e+05  1.0405653e+04 -2.4726344e+00  1.1748976e+05 -1.0405653e+04  2.4726344e+00 
 1.2022644e+05  1.0405653e+04 -2.5302294e+00  1.2022644e+05 -1.0405653e+04  2.5302294e+00 
 1.2302688e+05  1.0405653e+04 -2.5891660e+00  1.2302688e+05 -1.0405653e+04  2.5891660e+00 
 1.2589254e+05  1.0405653e+04 -2.6494754e+00  1.2589254e+05 -1.0405653e+04  2.6494754e+00 
 1.2882496e+05  1.0405653e+04 -2.7111897e+00  1.2882496e+05 -1.0405653e+04  2.7111897e+00 
 1.3182567e+05  1.0405653e+04 -2.7743414e+00  1.3182567e+05 -1.0405653e+04  2.7743414e+00 
 1.3489629e+05  1.0405653e+04 -2.8389641e+00  1.3489629e+05 -1.0405653e+04  2.8389641e+00 
 1.3803843e+05  1.0405653e+04 -2.9050920e+00  1.3803843e+05 -1.0405653e+04  2.9050920e+00 
 1.4125375e+05  1.0405653e+04 -2.9727603e+00  1.4125375e+05 -1.0405653e+04  2.9727603e+00 
 1.4454398e+05  1.0405653e+04 -3.0420048e+00  1.4454398e+05 -1.0405653e+04  3.0420048e+00 
 1.4791084e+05  1.0405653e+04 -3.1128622e+00  1.4791084e+05 -1.0405653e+04  3.1128622e+00 
